[
    {
        "command": "01 06 00 47 7B FF 5B 6F",
        "comment": "Pn071 ptrigger",
        "count": 0,
        "shortcut": "Ctrl+5",
        "timer": 1000
    },
    {
        "command": "01 06 00 47 77 FF 5E 6F",
        "comment": "Pn071 stop",
        "count": 0,
        "shortcut": "Ctrl+4",
        "timer": 1000
    },
	{
        "command": "01 10 00 78 00 02 04 00 00 FF 9C B4 B4",
        "comment": "position -100",
        "count": 0,
        "shortcut": "",
        "timer": 1000
    },
	{
        "command": "01 10 00 78 00 02 04 00 00 00 64 F4 C6",
        "comment": "position 100",
        "count": 0,
        "shortcut": "",
        "timer": 1000
    },
    {
        "command": "01 10 00 78 00 02 04 00 00 EC 78 B9 CF",
        "comment": "position -5000",
        "count": 0,
        "shortcut": "",
        "timer": 1000
    },
	{
        "command": "01 10 00 78 00 02 04 00 00 13 88 F8 7B",
        "comment": "position 5000",
        "count": 0,
        "shortcut": "",
        "timer": 1000
    },
	{
        "command": "01 03 01 83 00 05 75 DD",
        "comment": "read encoder",
        "count": 0,
        "shortcut": "Ctrl+3",
        "timer": 1000
    },
    {
        "command": "01 06 00 46 7F F2 C9 AA",
        "comment": "Emergency ON",
        "count": 0,
        "shortcut": "Ctrl+1",
        "timer": 1000
    },
    {
        "command": "01 06 00 46 7F B2 C8 5A",
        "comment": "Emergency OFF",
        "count": 0,
        "shortcut": "",
        "timer": 1000
    }
]
